
T38B0 000:292 SEGGER J-Link V4.96d Log File (0001ms, 0264ms total)
T38B0 000:292 DLL Compiled: Jan 29 2015 11:45:37 (0001ms, 0264ms total)
T38B0 000:292 Logging started @ 2016-11-04 10:00 (0001ms, 0264ms total)
T38B0 000:293 JLINK_SetWarnOutHandler(...) (0000ms, 0264ms total)
T38B0 000:293 JLINK_OpenEx(...)
Firmware: J-Link ARM V8 compiled Nov 28 2014 13:44:46
Hardware: V8.00
S/N: 17935099
Feature(s): RDI,FlashDL,FlashBP,JFlash  returns O.K. (0265ms, 0529ms total)
T38B0 000:558 JLINK_SetErrorOutHandler(...) (0000ms, 0529ms total)
T38B0 000:558 JLINK_ExecCommand("ProjectFile = "C:\Users\think\Desktop\gz\fd\free-flight-in-the-wind-tunnel\MDK-ARM\JLinkSettings.ini"", ...)  returns 0x00 (0001ms, 0530ms total)
T38B0 000:583 JLINK_ExecCommand("Device = STM32F407VE", ...)Device "STM32F407VE" selected.  returns 0x00 (0022ms, 0553ms total)
T38B0 000:605 JLINK_ExecCommand("DisableConnectionTimeout", ...)  returns 0x01 (0000ms, 0553ms total)
T38B0 000:605 JLINK_GetHardwareVersion()  returns 0x13880 (0000ms, 0553ms total)
T38B0 000:605 JLINK_GetDLLVersion()  returns 49604 (0000ms, 0553ms total)
T38B0 000:605 JLINK_GetFirmwareString(...) (0000ms, 0553ms total)
T38B0 000:631 JLINK_GetDLLVersion()  returns 49604 (0000ms, 0553ms total)
T38B0 000:631 JLINK_GetCompileDateTime() (0000ms, 0553ms total)
T38B0 000:641 JLINK_GetFirmwareString(...) (0000ms, 0553ms total)
T38B0 000:650 JLINK_GetHardwareVersion()  returns 0x13880 (0000ms, 0553ms total)
T38B0 000:678 JLINK_TIF_Select(JLINKARM_TIF_SWD)  returns 0x00 (0001ms, 0554ms total)
T38B0 000:679 JLINK_SetSpeed(1000) (0000ms, 0554ms total)
T38B0 000:679 JLINK_GetId() >0x108 TIF>Found SWD-DP with ID 0x2BA01477 >0x0D TIF> >0x28 TIF> >0x0D TIF> >0x28 TIF> >0x0D TIF> >0x21 TIF> >0x0D TIF> >0x28 TIF> >0x0D TIF> >0x28 TIF> >0x0D TIF> >0x28 TIF> >0x0D TIF> >0x21 TIF> >0x0D TIF> >0x21 TIF> >0x0D TIF> >0x28 TIF> >0x0D TIF> >0x21 TIF> >0x0D TIF> >0x21 TIF> >0x0D TIF> >0x28 TIF> >0x0D TIF> >0x21 TIF> >0x0D TIF> >0x21 TIF> >0x108 TIF>Found SWD-DP with ID 0x2BA01477 >0x0D TIF> >0x21 TIF> >0x0D TIF> >0x28 TIF> >0x0D TIF> >0x28 TIF> >0x0D TIF> >0x21 TIF>
 >0x0D TIF> >0x28 TIF> >0x0D TIF> >0x21 TIF> >0x0D TIF> >0x21 TIF> >0x0D TIF> >0x21 TIF> >0x0D TIF> >0x21 TIF> >0x0D TIF> >0x28 TIF> >0x0D TIF> >0x28 TIF> >0x0D TIF> >0x21 TIF> >0x0D TIF> >0x28 TIF> >0x0D TIF> >0x28 TIF> >0x0D TIF> >0x28 TIF> >0x0D TIF> >0x21 TIF> >0x0D TIF> >0x21 TIF> >0x0D TIF> >0x28 TIF> >0x0D TIF> >0x21 TIF> >0x0D TIF> >0x21 TIF>Found Cortex-M4 r0p1, Little endian. -- CPU_WriteMem(4 bytes @ 0xE0002000) -- CPU_ReadMem(4 bytes @ 0xE000EDF0) -- CPU_ReadMem(4 bytes @ 0xE0002000)
FPUnit: 6 code (BP) slots and 2 literal slots -- CPU_ReadMem(4 bytes @ 0xE000EDFC) -- CPU_ReadMem(4 bytes @ 0xE0001000) -- CPU_WriteMem(4 bytes @ 0xE0001000) -- CPU_ReadMem(4 bytes @ 0xE000ED88) -- CPU_WriteMem(4 bytes @ 0xE000ED88) -- CPU_ReadMem(4 bytes @ 0xE000ED88) -- CPU_WriteMem(4 bytes @ 0xE000ED88) -- CPU_ReadMem(4 bytes @ 0xE00FF010)TPIU fitted. -- CPU_ReadMem(4 bytes @ 0xE00FF014)ETM fitted. -- CPU_ReadMem(4 bytes @ 0xE00FF018) >0x0D TIF> >0x21 TIF>  returns 0x2BA01477 (0105ms, 0659ms total)
T38B0 000:784 JLINK_GetDLLVersion()  returns 49604 (0000ms, 0659ms total)
T38B0 000:784 JLINK_CORE_GetFound()  returns 0xE0000FF (0000ms, 0659ms total)
T38B0 000:784 JLINK_GetDebugInfo(0x100) -- Value=0xE00FF003  returns 0x00 (0000ms, 0659ms total)
T38B0 000:791 JLINK_ReadMem (0xE00FF000, 0x0020 Bytes, ...) -- CPU is running -- CPU_ReadMem(32 bytes @ 0xE00FF000) - Data: 03 F0 F0 FF 03 20 F0 FF 03 30 F0 FF 03 10 F0 FF ...  returns 0x00 (0002ms, 0661ms total)
T38B0 000:793 JLINK_ReadMem (0xE000EFF0, 0x0010 Bytes, ...) -- CPU is running -- CPU_ReadMem(16 bytes @ 0xE000EFF0) - Data: 0D 00 00 00 E0 00 00 00 05 00 00 00 B1 00 00 00  returns 0x00 (0001ms, 0662ms total)
T38B0 000:794 JLINK_ReadMem (0xE000EFD0, 0x0020 Bytes, ...) -- CPU is running -- CPU_ReadMem(32 bytes @ 0xE000EFD0) - Data: 04 00 00 00 00 00 00 00 00 00 00 00 00 00 00 00 ...  returns 0x00 (0001ms, 0663ms total)
T38B0 000:795 JLINK_ReadMem (0xE0001FF0, 0x0010 Bytes, ...) -- CPU is running -- CPU_ReadMem(16 bytes @ 0xE0001FF0) - Data: 0D 00 00 00 E0 00 00 00 05 00 00 00 B1 00 00 00  returns 0x00 (0002ms, 0665ms total)
T38B0 000:797 JLINK_ReadMem (0xE0001FD0, 0x0020 Bytes, ...) -- CPU is running -- CPU_ReadMem(32 bytes @ 0xE0001FD0) - Data: 04 00 00 00 00 00 00 00 00 00 00 00 00 00 00 00 ...  returns 0x00 (0002ms, 0667ms total)
T38B0 000:799 JLINK_ReadMem (0xE0002FF0, 0x0010 Bytes, ...) -- CPU is running -- CPU_ReadMem(16 bytes @ 0xE0002FF0) - Data: 0D 00 00 00 E0 00 00 00 05 00 00 00 B1 00 00 00  returns 0x00 (0001ms, 0668ms total)
T38B0 000:800 JLINK_ReadMem (0xE0002FD0, 0x0020 Bytes, ...) -- CPU is running -- CPU_ReadMem(32 bytes @ 0xE0002FD0) - Data: 04 00 00 00 00 00 00 00 00 00 00 00 00 00 00 00 ...  returns 0x00 (0002ms, 0670ms total)
T38B0 000:802 JLINK_ReadMem (0xE0000FF0, 0x0010 Bytes, ...) -- CPU is running -- CPU_ReadMem(16 bytes @ 0xE0000FF0) - Data: 0D 00 00 00 E0 00 00 00 05 00 00 00 B1 00 00 00  returns 0x00 (0001ms, 0671ms total)
T38B0 000:803 JLINK_ReadMem (0xE0000FD0, 0x0020 Bytes, ...) -- CPU is running -- CPU_ReadMem(32 bytes @ 0xE0000FD0) - Data: 04 00 00 00 00 00 00 00 00 00 00 00 00 00 00 00 ...  returns 0x00 (0001ms, 0672ms total)
T38B0 000:804 JLINK_ReadMem (0xE0040FF0, 0x0010 Bytes, ...) -- CPU is running -- CPU_ReadMem(16 bytes @ 0xE0040FF0) - Data: 0D 00 00 00 90 00 00 00 05 00 00 00 B1 00 00 00  returns 0x00 (0002ms, 0674ms total)
T38B0 000:806 JLINK_ReadMem (0xE0040FD0, 0x0020 Bytes, ...) -- CPU is running -- CPU_ReadMem(32 bytes @ 0xE0040FD0) - Data: 04 00 00 00 00 00 00 00 00 00 00 00 00 00 00 00 ...  returns 0x00 (0001ms, 0675ms total)
T38B0 000:807 JLINK_ReadMem (0xE0041FF0, 0x0010 Bytes, ...) -- CPU is running -- CPU_ReadMem(16 bytes @ 0xE0041FF0) - Data: 0D 00 00 00 90 00 00 00 05 00 00 00 B1 00 00 00  returns 0x00 (0002ms, 0677ms total)
T38B0 000:809 JLINK_ReadMem (0xE0041FD0, 0x0020 Bytes, ...) -- CPU is running -- CPU_ReadMem(32 bytes @ 0xE0041FD0) - Data: 04 00 00 00 00 00 00 00 00 00 00 00 00 00 00 00 ...  returns 0x00 (0002ms, 0679ms total)
T38B0 000:811 JLINK_ReadMemU32(0xE000EF40, 0x0001 Items, ...) -- CPU is running -- CPU_ReadMem(4 bytes @ 0xE000EF40) - Data: 21 00 11 10  returns 0x01 (0001ms, 0680ms total)
T38B0 000:812 JLINK_ReadMemU32(0xE000EF44, 0x0001 Items, ...) -- CPU is running -- CPU_ReadMem(4 bytes @ 0xE000EF44) - Data: 11 00 00 11  returns 0x01 (0001ms, 0681ms total)
T38B0 000:813 JLINK_ReadMemU32(0xE000ED00, 0x0001 Items, ...) -- CPU is running -- CPU_ReadMem(4 bytes @ 0xE000ED00) - Data: 41 C2 0F 41  returns 0x01 (0001ms, 0682ms total)
T38B0 000:814 JLINK_SetResetType(JLINKARM_RESET_TYPE_NORMAL)  returns JLINKARM_RESET_TYPE_NORMAL (0000ms, 0682ms total)
T38B0 000:814 JLINK_Reset() -- CPU is running -- CPU_WriteMem(4 bytes @ 0xE000EDF0) -- CPU is running -- CPU_WriteMem(4 bytes @ 0xE000EDFC) >0x35 TIF> -- CPU is running -- CPU_WriteMem(4 bytes @ 0xE000ED0C) -- CPU is running -- CPU_ReadMem(4 bytes @ 0xE000EDF0) -- CPU is running -- CPU_ReadMem(4 bytes @ 0xE000EDF0) -- CPU is running -- CPU_WriteMem(4 bytes @ 0xE000EDF0) -- CPU is running -- CPU_WriteMem(4 bytes @ 0xE000EDFC) -- CPU is running -- CPU_ReadMem(4 bytes @ 0xE000EDF0)
 -- CPU_WriteMem(4 bytes @ 0xE0002000) -- CPU_ReadMem(4 bytes @ 0xE000EDFC) -- CPU_ReadMem(4 bytes @ 0xE0001000) (0028ms, 0710ms total)
T38B0 000:842 JLINK_Halt()  returns 0x00 (0000ms, 0710ms total)
T38B0 000:842 JLINK_IsHalted()  returns TRUE (0000ms, 0710ms total)
T38B0 000:842 JLINK_ReadMemU32(0xE000EDF0, 0x0001 Items, ...) -- CPU_ReadMem(4 bytes @ 0xE000EDF0) - Data: 03 00 03 00  returns 0x01 (0001ms, 0711ms total)
T38B0 000:843 JLINK_WriteU32(0xE000EDF0, 0xA05F0003) -- CPU_WriteMem(4 bytes @ 0xE000EDF0)  returns 0x00 (0001ms, 0712ms total)
T38B0 000:844 JLINK_WriteU32(0xE000EDFC, 0x01000000) -- CPU_WriteMem(4 bytes @ 0xE000EDFC)  returns 0x00 (0002ms, 0714ms total)
T38B0 000:870 JLINK_GetHWStatus(...)  returns 0x00 (0001ms, 0715ms total)
T38B0 000:895 JLINK_GetNumBPUnits(Type = 0xFFFFFF00)  returns 0x06 (0000ms, 0715ms total)
T38B0 000:895 JLINK_GetNumBPUnits(Type = 0xF0)  returns 0x2000 (0000ms, 0715ms total)
T38B0 000:895 JLINK_GetNumWPUnits()  returns 0x04 (0000ms, 0715ms total)
T38B0 000:912 JLINK_GetSpeed()  returns 0x3E8 (0001ms, 0716ms total)
T38B0 000:924 JLINK_ReadMemU32(0xE000E004, 0x0001 Items, ...) -- CPU_ReadMem(4 bytes @ 0xE000E004) - Data: 02 00 00 00  returns 0x01 (0001ms, 0717ms total)
T38B0 000:925 JLINK_ReadMemU32(0xE000E004, 0x0001 Items, ...) -- CPU_ReadMem(4 bytes @ 0xE000E004) - Data: 02 00 00 00  returns 0x01 (0002ms, 0719ms total)
T38B0 000:927 JLINK_WriteMem(0xE0001000, 0x001C Bytes, ...) - Data: 01 00 00 00 00 00 00 00 00 00 00 00 00 00 00 00 ... -- CPU_WriteMem(28 bytes @ 0xE0001000)  returns 0x1C (0002ms, 0721ms total)
T38B0 000:929 JLINK_ReadMem (0xE0001000, 0x001C Bytes, ...) -- CPU_ReadMem(28 bytes @ 0xE0001000) - Data: 01 00 00 40 00 00 00 00 00 00 00 00 00 00 00 00 ...  returns 0x00 (0001ms, 0722ms total)
T38B0 000:930 JLINK_Halt()  returns 0x00 (0000ms, 0722ms total)
T38B0 000:930 JLINK_IsHalted()  returns TRUE (0000ms, 0722ms total)
T38B0 000:999 JLINK_WriteMem(0x20000000, 0x0180 Bytes, ...) - Data: 00 BE 0A E0 0D 78 2D 06 68 40 08 24 40 00 00 D3 ... -- CPU_WriteMem(384 bytes @ 0x20000000)  returns 0x180 (0009ms, 0731ms total)
T38B0 001:008 JLINK_WriteReg(R0, 0x08000000)  returns 0x00 (0000ms, 0731ms total)
T38B0 001:008 JLINK_WriteReg(R1, 0x00B71B00)  returns 0x00 (0000ms, 0731ms total)
T38B0 001:008 JLINK_WriteReg(R2, 0x00000001)  returns 0x00 (0000ms, 0731ms total)
T38B0 001:008 JLINK_WriteReg(R3, 0x00000000)  returns 0x00 (0000ms, 0731ms total)
T38B0 001:008 JLINK_WriteReg(R4, 0x00000000)  returns 0x00 (0000ms, 0731ms total)
T38B0 001:008 JLINK_WriteReg(R5, 0x00000000)  returns 0x00 (0000ms, 0731ms total)
T38B0 001:008 JLINK_WriteReg(R6, 0x00000000)  returns 0x00 (0000ms, 0731ms total)
T38B0 001:008 JLINK_WriteReg(R7, 0x00000000)  returns 0x00 (0000ms, 0731ms total)
T38B0 001:008 JLINK_WriteReg(R8, 0x00000000)  returns 0x00 (0000ms, 0731ms total)
T38B0 001:008 JLINK_WriteReg(R9, 0x2000017C)  returns 0x00 (0000ms, 0731ms total)
T38B0 001:008 JLINK_WriteReg(R10, 0x00000000)  returns 0x00 (0000ms, 0731ms total)
T38B0 001:008 JLINK_WriteReg(R11, 0x00000000)  returns 0x00 (0000ms, 0731ms total)
T38B0 001:008 JLINK_WriteReg(R12, 0x00000000)  returns 0x00 (0000ms, 0731ms total)
T38B0 001:008 JLINK_WriteReg(R13 (SP), 0x20001000)  returns 0x00 (0001ms, 0732ms total)
T38B0 001:009 JLINK_WriteReg(R14, 0x20000001)  returns 0x00 (0000ms, 0732ms total)
T38B0 001:009 JLINK_WriteReg(R15 (PC), 0x20000054)  returns 0x00 (0000ms, 0732ms total)
T38B0 001:009 JLINK_WriteReg(XPSR, 0x01000000)  returns 0x00 (0000ms, 0732ms total)
T38B0 001:009 JLINK_WriteReg(MSP, 0x20001000)  returns 0x00 (0000ms, 0732ms total)
T38B0 001:009 JLINK_WriteReg(PSP, 0x20001000)  returns 0x00 (0000ms, 0732ms total)
T38B0 001:009 JLINK_WriteReg(CFBP, 0x00000000)  returns 0x00 (0000ms, 0732ms total)
T38B0 001:009 JLINK_SetBPEx(Addr = 0x20000000, Type = 0xFFFFFFF2) -- CPU_ReadMem(2 bytes @ 0x20000000)  returns 0x00000001 (0001ms, 0733ms total)
T38B0 001:010 JLINK_Go() -- CPU_WriteMem(2 bytes @ 0x20000000) -- CPU_WriteMem(4 bytes @ 0xE0002008) -- CPU_WriteMem(4 bytes @ 0xE000200C) -- CPU_WriteMem(4 bytes @ 0xE0002010) -- CPU_WriteMem(4 bytes @ 0xE0002014) -- CPU_WriteMem(4 bytes @ 0xE0002018) -- CPU_WriteMem(4 bytes @ 0xE000201C) -- CPU_WriteMem(4 bytes @ 0xE0001004) (0009ms, 0742ms total)
T38B0 001:019 JLINK_IsHalted() -- CPU_ReadMem(2 bytes @ 0x20000000)  returns TRUE (0006ms, 0748ms total)
T38B0 001:025 JLINK_ReadReg(R15 (PC))  returns 0x20000000 (0000ms, 0742ms total)
T38B0 001:025 JLINK_ClrBPEx(BPHandle = 0x00000001)  returns 0x00 (0000ms, 0742ms total)
T38B0 001:025 JLINK_ReadReg(R0)  returns 0x00000000 (0000ms, 0742ms total)
T38B0 001:026 JLINK_WriteReg(R0, 0x08000000)  returns 0x00 (0000ms, 0742ms total)
T38B0 001:026 JLINK_WriteReg(R1, 0x00004000)  returns 0x00 (0000ms, 0742ms total)
T38B0 001:026 JLINK_WriteReg(R2, 0x000000FF)  returns 0x00 (0000ms, 0742ms total)
T38B0 001:026 JLINK_WriteReg(R3, 0x00000000)  returns 0x00 (0000ms, 0742ms total)
T38B0 001:026 JLINK_WriteReg(R4, 0x00000000)  returns 0x00 (0000ms, 0742ms total)
T38B0 001:026 JLINK_WriteReg(R5, 0x00000000)  returns 0x00 (0000ms, 0742ms total)
T38B0 001:026 JLINK_WriteReg(R6, 0x00000000)  returns 0x00 (0000ms, 0742ms total)
T38B0 001:026 JLINK_WriteReg(R7, 0x00000000)  returns 0x00 (0000ms, 0742ms total)
T38B0 001:026 JLINK_WriteReg(R8, 0x00000000)  returns 0x00 (0000ms, 0742ms total)
T38B0 001:026 JLINK_WriteReg(R9, 0x2000017C)  returns 0x00 (0000ms, 0742ms total)
T38B0 001:026 JLINK_WriteReg(R10, 0x00000000)  returns 0x00 (0000ms, 0742ms total)
T38B0 001:026 JLINK_WriteReg(R11, 0x00000000)  returns 0x00 (0000ms, 0742ms total)
T38B0 001:026 JLINK_WriteReg(R12, 0x00000000)  returns 0x00 (0000ms, 0742ms total)
T38B0 001:026 JLINK_WriteReg(R13 (SP), 0x20001000)  returns 0x00 (0000ms, 0742ms total)
T38B0 001:026 JLINK_WriteReg(R14, 0x20000001)  returns 0x00 (0000ms, 0742ms total)
T38B0 001:026 JLINK_WriteReg(R15 (PC), 0x20000020)  returns 0x00 (0000ms, 0742ms total)
T38B0 001:026 JLINK_WriteReg(XPSR, 0x01000000)  returns 0x00 (0001ms, 0743ms total)
T38B0 001:027 JLINK_WriteReg(MSP, 0x20001000)  returns 0x00 (0000ms, 0743ms total)
T38B0 001:027 JLINK_WriteReg(PSP, 0x20001000)  returns 0x00 (0000ms, 0743ms total)
T38B0 001:027 JLINK_WriteReg(CFBP, 0x00000000)  returns 0x00 (0000ms, 0743ms total)
T38B0 001:027 JLINK_SetBPEx(Addr = 0x20000000, Type = 0xFFFFFFF2)  returns 0x00000002 (0000ms, 0743ms total)
T38B0 001:027 JLINK_Go() (0003ms, 0746ms total)
T38B0 001:030 JLINK_IsHalted() -- CPU_ReadMem(2 bytes @ 0x20000000)  returns TRUE (0006ms, 0752ms total)
T38B0 001:036 JLINK_ReadReg(R15 (PC))  returns 0x20000000 (0000ms, 0746ms total)
T38B0 001:036 JLINK_ClrBPEx(BPHandle = 0x00000002)  returns 0x00 (0000ms, 0746ms total)
T38B0 001:036 JLINK_ReadReg(R0)  returns 0x00000001 (0000ms, 0746ms total)
T38B0 001:036 JLINK_WriteReg(R0, 0x08000000)  returns 0x00 (0000ms, 0746ms total)
T38B0 001:036 JLINK_WriteReg(R1, 0x00004000)  returns 0x00 (0000ms, 0746ms total)
T38B0 001:036 JLINK_WriteReg(R2, 0x000000FF)  returns 0x00 (0000ms, 0746ms total)
T38B0 001:036 JLINK_WriteReg(R3, 0x00000000)  returns 0x00 (0000ms, 0746ms total)
T38B0 001:036 JLINK_WriteReg(R4, 0x00000000)  returns 0x00 (0000ms, 0746ms total)
T38B0 001:036 JLINK_WriteReg(R5, 0x00000000)  returns 0x00 (0000ms, 0746ms total)
T38B0 001:036 JLINK_WriteReg(R6, 0x00000000)  returns 0x00 (0000ms, 0746ms total)
T38B0 001:036 JLINK_WriteReg(R7, 0x00000000)  returns 0x00 (0000ms, 0746ms total)
T38B0 001:036 JLINK_WriteReg(R8, 0x00000000)  returns 0x00 (0000ms, 0746ms total)
T38B0 001:036 JLINK_WriteReg(R9, 0x2000017C)  returns 0x00 (0000ms, 0746ms total)
T38B0 001:036 JLINK_WriteReg(R10, 0x00000000)  returns 0x00 (0000ms, 0746ms total)
T38B0 001:036 JLINK_WriteReg(R11, 0x00000000)  returns 0x00 (0000ms, 0746ms total)
T38B0 001:036 JLINK_WriteReg(R12, 0x00000000)  returns 0x00 (0000ms, 0746ms total)
T38B0 001:036 JLINK_WriteReg(R13 (SP), 0x20001000)  returns 0x00 (0000ms, 0746ms total)
T38B0 001:036 JLINK_WriteReg(R14, 0x20000001)  returns 0x00 (0000ms, 0746ms total)
T38B0 001:036 JLINK_WriteReg(R15 (PC), 0x200000BC)  returns 0x00 (0000ms, 0746ms total)
T38B0 001:036 JLINK_WriteReg(XPSR, 0x01000000)  returns 0x00 (0000ms, 0746ms total)
T38B0 001:036 JLINK_WriteReg(MSP, 0x20001000)  returns 0x00 (0000ms, 0746ms total)
T38B0 001:036 JLINK_WriteReg(PSP, 0x20001000)  returns 0x00 (0000ms, 0746ms total)
T38B0 001:036 JLINK_WriteReg(CFBP, 0x00000000)  returns 0x00 (0001ms, 0747ms total)
T38B0 001:037 JLINK_SetBPEx(Addr = 0x20000000, Type = 0xFFFFFFF2)  returns 0x00000003 (0000ms, 0747ms total)
T38B0 001:037 JLINK_Go() (0003ms, 0750ms total)
T38B0 001:040 JLINK_IsHalted()  returns FALSE (0001ms, 0751ms total)
T38B0 001:208 JLINK_IsHalted()  returns FALSE (0001ms, 0751ms total)
T38B0 001:274 JLINK_IsHalted()  returns FALSE (0001ms, 0751ms total)
T38B0 001:284 JLINK_IsHalted()  returns FALSE (0001ms, 0751ms total)
T38B0 001:286 JLINK_IsHalted()  returns FALSE (0001ms, 0751ms total)
T38B0 001:289 JLINK_IsHalted()  returns FALSE (0001ms, 0751ms total)
T38B0 001:291 JLINK_IsHalted()  returns FALSE (0001ms, 0751ms total)
T38B0 001:293 JLINK_IsHalted()  returns FALSE (0001ms, 0751ms total)
T38B0 001:296 JLINK_IsHalted()  returns FALSE (0000ms, 0750ms total)
T38B0 001:298 JLINK_IsHalted()  returns FALSE (0000ms, 0750ms total)
T38B0 001:300 JLINK_IsHalted()  returns FALSE (0001ms, 0751ms total)
T38B0 001:303 JLINK_IsHalted()  returns FALSE (0000ms, 0750ms total)
T38B0 001:305 JLINK_IsHalted()  returns FALSE (0001ms, 0751ms total)
T38B0 001:308 JLINK_IsHalted()  returns FALSE (0001ms, 0751ms total)
T38B0 001:311 JLINK_IsHalted()  returns FALSE (0001ms, 0751ms total)
T38B0 001:313 JLINK_IsHalted()  returns FALSE (0001ms, 0751ms total)
T38B0 001:315 JLINK_IsHalted()  returns FALSE (0001ms, 0751ms total)
T38B0 001:318 JLINK_IsHalted()  returns FALSE (0001ms, 0751ms total)
T38B0 001:321 JLINK_IsHalted()  returns FALSE (0001ms, 0751ms total)
T38B0 001:428 JLINK_IsHalted() -- CPU_ReadMem(2 bytes @ 0x20000000)  returns TRUE (0006ms, 0756ms total)
T38B0 001:434 JLINK_ReadReg(R15 (PC))  returns 0x20000000 (0000ms, 0750ms total)
T38B0 001:434 JLINK_ClrBPEx(BPHandle = 0x00000003)  returns 0x00 (0000ms, 0750ms total)
T38B0 001:434 JLINK_ReadReg(R0)  returns 0x00000000 (0000ms, 0750ms total)
T38B0 001:434 JLINK_WriteReg(R0, 0x08004000)  returns 0x00 (0001ms, 0751ms total)
T38B0 001:435 JLINK_WriteReg(R1, 0x00004000)  returns 0x00 (0000ms, 0751ms total)
T38B0 001:435 JLINK_WriteReg(R2, 0x000000FF)  returns 0x00 (0000ms, 0751ms total)
T38B0 001:435 JLINK_WriteReg(R3, 0x00000000)  returns 0x00 (0000ms, 0751ms total)
T38B0 001:435 JLINK_WriteReg(R4, 0x00000000)  returns 0x00 (0000ms, 0751ms total)
T38B0 001:435 JLINK_WriteReg(R5, 0x00000000)  returns 0x00 (0000ms, 0751ms total)
T38B0 001:435 JLINK_WriteReg(R6, 0x00000000)  returns 0x00 (0000ms, 0751ms total)
T38B0 001:435 JLINK_WriteReg(R7, 0x00000000)  returns 0x00 (0000ms, 0751ms total)
T38B0 001:435 JLINK_WriteReg(R8, 0x00000000)  returns 0x00 (0000ms, 0751ms total)
T38B0 001:435 JLINK_WriteReg(R9, 0x2000017C)  returns 0x00 (0000ms, 0751ms total)
T38B0 001:435 JLINK_WriteReg(R10, 0x00000000)  returns 0x00 (0000ms, 0751ms total)
T38B0 001:435 JLINK_WriteReg(R11, 0x00000000)  returns 0x00 (0000ms, 0751ms total)
T38B0 001:435 JLINK_WriteReg(R12, 0x00000000)  returns 0x00 (0000ms, 0751ms total)
T38B0 001:435 JLINK_WriteReg(R13 (SP), 0x20001000)  returns 0x00 (0000ms, 0751ms total)
T38B0 001:435 JLINK_WriteReg(R14, 0x20000001)  returns 0x00 (0000ms, 0751ms total)
T38B0 001:435 JLINK_WriteReg(R15 (PC), 0x20000020)  returns 0x00 (0000ms, 0751ms total)
T38B0 001:435 JLINK_WriteReg(XPSR, 0x01000000)  returns 0x00 (0000ms, 0751ms total)
T38B0 001:435 JLINK_WriteReg(MSP, 0x20001000)  returns 0x00 (0001ms, 0752ms total)
T38B0 001:436 JLINK_WriteReg(PSP, 0x20001000)  returns 0x00 (0000ms, 0752ms total)
T38B0 001:436 JLINK_WriteReg(CFBP, 0x00000000)  returns 0x00 (0000ms, 0752ms total)
T38B0 001:436 JLINK_SetBPEx(Addr = 0x20000000, Type = 0xFFFFFFF2)  returns 0x00000004 (0000ms, 0752ms total)
T38B0 001:436 JLINK_Go() (0002ms, 0754ms total)
T38B0 001:438 JLINK_IsHalted() -- CPU_ReadMem(2 bytes @ 0x20000000)  returns TRUE (0006ms, 0760ms total)
T38B0 001:444 JLINK_ReadReg(R15 (PC))  returns 0x20000000 (0000ms, 0754ms total)
T38B0 001:444 JLINK_ClrBPEx(BPHandle = 0x00000004)  returns 0x00 (0000ms, 0754ms total)
T38B0 001:444 JLINK_ReadReg(R0)  returns 0x00000001 (0000ms, 0754ms total)
T38B0 001:444 JLINK_WriteReg(R0, 0x08004000)  returns 0x00 (0000ms, 0754ms total)
T38B0 001:444 JLINK_WriteReg(R1, 0x00004000)  returns 0x00 (0000ms, 0754ms total)
T38B0 001:444 JLINK_WriteReg(R2, 0x000000FF)  returns 0x00 (0000ms, 0754ms total)
T38B0 001:444 JLINK_WriteReg(R3, 0x00000000)  returns 0x00 (0000ms, 0754ms total)
T38B0 001:444 JLINK_WriteReg(R4, 0x00000000)  returns 0x00 (0000ms, 0754ms total)
T38B0 001:444 JLINK_WriteReg(R5, 0x00000000)  returns 0x00 (0000ms, 0754ms total)
T38B0 001:444 JLINK_WriteReg(R6, 0x00000000)  returns 0x00 (0000ms, 0754ms total)
T38B0 001:444 JLINK_WriteReg(R7, 0x00000000)  returns 0x00 (0000ms, 0754ms total)
T38B0 001:444 JLINK_WriteReg(R8, 0x00000000)  returns 0x00 (0000ms, 0754ms total)
T38B0 001:444 JLINK_WriteReg(R9, 0x2000017C)  returns 0x00 (0000ms, 0754ms total)
T38B0 001:444 JLINK_WriteReg(R10, 0x00000000)  returns 0x00 (0000ms, 0754ms total)
T38B0 001:444 JLINK_WriteReg(R11, 0x00000000)  returns 0x00 (0000ms, 0754ms total)
T38B0 001:444 JLINK_WriteReg(R12, 0x00000000)  returns 0x00 (0000ms, 0754ms total)
T38B0 001:444 JLINK_WriteReg(R13 (SP), 0x20001000)  returns 0x00 (0000ms, 0754ms total)
T38B0 001:444 JLINK_WriteReg(R14, 0x20000001)  returns 0x00 (0000ms, 0754ms total)
T38B0 001:444 JLINK_WriteReg(R15 (PC), 0x200000BC)  returns 0x00 (0000ms, 0754ms total)
T38B0 001:444 JLINK_WriteReg(XPSR, 0x01000000)  returns 0x00 (0000ms, 0754ms total)
T38B0 001:444 JLINK_WriteReg(MSP, 0x20001000)  returns 0x00 (0000ms, 0754ms total)
T38B0 001:444 JLINK_WriteReg(PSP, 0x20001000)  returns 0x00 (0000ms, 0754ms total)
T38B0 001:444 JLINK_WriteReg(CFBP, 0x00000000)  returns 0x00 (0000ms, 0754ms total)
T38B0 001:444 JLINK_SetBPEx(Addr = 0x20000000, Type = 0xFFFFFFF2)  returns 0x00000005 (0000ms, 0754ms total)
T38B0 001:444 JLINK_Go() (0002ms, 0756ms total)
T38B0 001:446 JLINK_IsHalted()  returns FALSE (0001ms, 0757ms total)
T38B0 001:501 JLINK_IsHalted()  returns FALSE (0001ms, 0757ms total)
T38B0 001:503 JLINK_IsHalted()  returns FALSE (0000ms, 0756ms total)
T38B0 001:505 JLINK_IsHalted()  returns FALSE (0001ms, 0757ms total)
T38B0 001:507 JLINK_IsHalted()  returns FALSE (0000ms, 0756ms total)
T38B0 001:509 JLINK_IsHalted()  returns FALSE (0001ms, 0757ms total)
T38B0 001:511 JLINK_IsHalted()  returns FALSE (0000ms, 0756ms total)
T38B0 001:513 JLINK_IsHalted()  returns FALSE (0000ms, 0756ms total)
T38B0 001:515 JLINK_IsHalted()  returns FALSE (0001ms, 0757ms total)
T38B0 001:518 JLINK_IsHalted()  returns FALSE (0000ms, 0756ms total)
T38B0 001:520 JLINK_IsHalted()  returns FALSE (0001ms, 0757ms total)
T38B0 001:523 JLINK_IsHalted()  returns FALSE (0001ms, 0757ms total)
T38B0 001:526 JLINK_IsHalted()  returns FALSE (0000ms, 0756ms total)
T38B0 001:528 JLINK_IsHalted()  returns FALSE (0000ms, 0756ms total)
T38B0 001:530 JLINK_IsHalted()  returns FALSE (0001ms, 0757ms total)
T38B0 001:533 JLINK_IsHalted()  returns FALSE (0000ms, 0756ms total)
T38B0 001:535 JLINK_IsHalted()  returns FALSE (0000ms, 0756ms total)
T38B0 001:537 JLINK_IsHalted()  returns FALSE (0001ms, 0757ms total)
T38B0 001:540 JLINK_IsHalted()  returns FALSE (0001ms, 0757ms total)
T38B0 001:643 JLINK_IsHalted()  returns FALSE (0000ms, 0756ms total)
T38B0 001:645 JLINK_IsHalted()  returns FALSE (0000ms, 0756ms total)
T38B0 001:646 JLINK_IsHalted()  returns FALSE (0001ms, 0757ms total)
T38B0 001:648 JLINK_IsHalted()  returns FALSE (0000ms, 0756ms total)
T38B0 001:650 JLINK_IsHalted()  returns FALSE (0001ms, 0757ms total)
T38B0 001:703 JLINK_IsHalted()  returns FALSE (0000ms, 0756ms total)
T38B0 001:705 JLINK_IsHalted()  returns FALSE (0001ms, 0757ms total)
T38B0 001:707 JLINK_IsHalted()  returns FALSE (0000ms, 0756ms total)
T38B0 001:709 JLINK_IsHalted()  returns FALSE (0001ms, 0757ms total)
T38B0 001:711 JLINK_IsHalted()  returns FALSE (0000ms, 0756ms total)
T38B0 001:713 JLINK_IsHalted()  returns FALSE (0000ms, 0756ms total)
T38B0 001:714 JLINK_IsHalted()  returns FALSE (0001ms, 0757ms total)
T38B0 001:716 JLINK_IsHalted()  returns FALSE (0001ms, 0757ms total)
T38B0 001:718 JLINK_IsHalted()  returns FALSE (0001ms, 0757ms total)
T38B0 001:720 JLINK_IsHalted()  returns FALSE (0001ms, 0757ms total)
T38B0 001:722 JLINK_IsHalted()  returns FALSE (0000ms, 0756ms total)
T38B0 001:724 JLINK_IsHalted()  returns FALSE (0000ms, 0756ms total)
T38B0 001:725 JLINK_IsHalted()  returns FALSE (0000ms, 0756ms total)
T38B0 001:727 JLINK_IsHalted()  returns FALSE (0001ms, 0757ms total)
T38B0 001:730 JLINK_IsHalted()  returns FALSE (0001ms, 0757ms total)
T38B0 001:733 JLINK_IsHalted()  returns FALSE (0000ms, 0756ms total)
T38B0 001:736 JLINK_IsHalted()  returns FALSE (0000ms, 0756ms total)
T38B0 001:738 JLINK_IsHalted()  returns FALSE (0001ms, 0757ms total)
T38B0 001:741 JLINK_IsHalted()  returns FALSE (0001ms, 0757ms total)
T38B0 001:744 JLINK_IsHalted()  returns FALSE (0000ms, 0756ms total)
T38B0 001:746 JLINK_IsHalted()  returns FALSE (0001ms, 0757ms total)
T38B0 001:748 JLINK_IsHalted()  returns FALSE (0001ms, 0757ms total)
T38B0 001:751 JLINK_IsHalted()  returns FALSE (0001ms, 0757ms total)
T38B0 001:754 JLINK_IsHalted()  returns FALSE (0001ms, 0757ms total)
T38B0 001:756 JLINK_IsHalted()  returns FALSE (0001ms, 0757ms total)
T38B0 001:759 JLINK_IsHalted()  returns FALSE (0000ms, 0756ms total)
T38B0 001:871 JLINK_IsHalted() -- CPU_ReadMem(2 bytes @ 0x20000000)  returns TRUE (0005ms, 0761ms total)
T38B0 001:876 JLINK_ReadReg(R15 (PC))  returns 0x20000000 (0000ms, 0756ms total)
T38B0 001:876 JLINK_ClrBPEx(BPHandle = 0x00000005)  returns 0x00 (0000ms, 0756ms total)
T38B0 001:876 JLINK_ReadReg(R0)  returns 0x00000000 (0000ms, 0756ms total)
T38B0 001:876 JLINK_WriteReg(R0, 0x00000001)  returns 0x00 (0000ms, 0756ms total)
T38B0 001:876 JLINK_WriteReg(R1, 0x00004000)  returns 0x00 (0000ms, 0756ms total)
T38B0 001:876 JLINK_WriteReg(R2, 0x000000FF)  returns 0x00 (0000ms, 0756ms total)
T38B0 001:876 JLINK_WriteReg(R3, 0x00000000)  returns 0x00 (0000ms, 0756ms total)
T38B0 001:876 JLINK_WriteReg(R4, 0x00000000)  returns 0x00 (0000ms, 0756ms total)
T38B0 001:876 JLINK_WriteReg(R5, 0x00000000)  returns 0x00 (0000ms, 0756ms total)
T38B0 001:876 JLINK_WriteReg(R6, 0x00000000)  returns 0x00 (0000ms, 0756ms total)
T38B0 001:876 JLINK_WriteReg(R7, 0x00000000)  returns 0x00 (0000ms, 0756ms total)
T38B0 001:876 JLINK_WriteReg(R8, 0x00000000)  returns 0x00 (0000ms, 0756ms total)
T38B0 001:876 JLINK_WriteReg(R9, 0x2000017C)  returns 0x00 (0000ms, 0756ms total)
T38B0 001:876 JLINK_WriteReg(R10, 0x00000000)  returns 0x00 (0000ms, 0756ms total)
T38B0 001:876 JLINK_WriteReg(R11, 0x00000000)  returns 0x00 (0000ms, 0756ms total)
T38B0 001:876 JLINK_WriteReg(R12, 0x00000000)  returns 0x00 (0000ms, 0756ms total)
T38B0 001:876 JLINK_WriteReg(R13 (SP), 0x20001000)  returns 0x00 (0000ms, 0756ms total)
T38B0 001:876 JLINK_WriteReg(R14, 0x20000001)  returns 0x00 (0000ms, 0756ms total)
T38B0 001:876 JLINK_WriteReg(R15 (PC), 0x20000082)  returns 0x00 (0000ms, 0756ms total)
T38B0 001:876 JLINK_WriteReg(XPSR, 0x01000000)  returns 0x00 (0000ms, 0756ms total)
T38B0 001:876 JLINK_WriteReg(MSP, 0x20001000)  returns 0x00 (0000ms, 0756ms total)
T38B0 001:876 JLINK_WriteReg(PSP, 0x20001000)  returns 0x00 (0000ms, 0756ms total)
T38B0 001:876 JLINK_WriteReg(CFBP, 0x00000000)  returns 0x00 (0000ms, 0756ms total)
T38B0 001:876 JLINK_SetBPEx(Addr = 0x20000000, Type = 0xFFFFFFF2)  returns 0x00000006 (0000ms, 0756ms total)
T38B0 001:876 JLINK_Go() (0003ms, 0759ms total)
T38B0 001:879 JLINK_IsHalted() -- CPU_ReadMem(2 bytes @ 0x20000000)  returns TRUE (0006ms, 0765ms total)
T38B0 001:885 JLINK_ReadReg(R15 (PC))  returns 0x20000000 (0000ms, 0759ms total)
T38B0 001:885 JLINK_ClrBPEx(BPHandle = 0x00000006)  returns 0x00 (0000ms, 0759ms total)
T38B0 001:885 JLINK_ReadReg(R0)  returns 0x00000000 (0000ms, 0759ms total)
T38B0 001:947 JLINK_WriteMem(0x20000000, 0x0180 Bytes, ...) - Data: 00 BE 0A E0 0D 78 2D 06 68 40 08 24 40 00 00 D3 ... -- CPU_WriteMem(384 bytes @ 0x20000000)  returns 0x180 (0007ms, 0766ms total)
T38B0 001:954 JLINK_WriteReg(R0, 0x08000000)  returns 0x00 (0000ms, 0766ms total)
T38B0 001:954 JLINK_WriteReg(R1, 0x00B71B00)  returns 0x00 (0000ms, 0766ms total)
T38B0 001:954 JLINK_WriteReg(R2, 0x00000002)  returns 0x00 (0000ms, 0766ms total)
T38B0 001:954 JLINK_WriteReg(R3, 0x00000000)  returns 0x00 (0000ms, 0766ms total)
T38B0 001:954 JLINK_WriteReg(R4, 0x00000000)  returns 0x00 (0000ms, 0766ms total)
T38B0 001:954 JLINK_WriteReg(R5, 0x00000000)  returns 0x00 (0000ms, 0766ms total)
T38B0 001:954 JLINK_WriteReg(R6, 0x00000000)  returns 0x00 (0000ms, 0766ms total)
T38B0 001:954 JLINK_WriteReg(R7, 0x00000000)  returns 0x00 (0000ms, 0766ms total)
T38B0 001:954 JLINK_WriteReg(R8, 0x00000000)  returns 0x00 (0000ms, 0766ms total)
T38B0 001:954 JLINK_WriteReg(R9, 0x2000017C)  returns 0x00 (0001ms, 0767ms total)
T38B0 001:955 JLINK_WriteReg(R10, 0x00000000)  returns 0x00 (0000ms, 0767ms total)
T38B0 001:955 JLINK_WriteReg(R11, 0x00000000)  returns 0x00 (0000ms, 0767ms total)
T38B0 001:955 JLINK_WriteReg(R12, 0x00000000)  returns 0x00 (0000ms, 0767ms total)
T38B0 001:955 JLINK_WriteReg(R13 (SP), 0x20001000)  returns 0x00 (0000ms, 0767ms total)
T38B0 001:955 JLINK_WriteReg(R14, 0x20000001)  returns 0x00 (0000ms, 0767ms total)
T38B0 001:955 JLINK_WriteReg(R15 (PC), 0x20000054)  returns 0x00 (0000ms, 0767ms total)
T38B0 001:955 JLINK_WriteReg(XPSR, 0x01000000)  returns 0x00 (0000ms, 0767ms total)
T38B0 001:955 JLINK_WriteReg(MSP, 0x20001000)  returns 0x00 (0000ms, 0767ms total)
T38B0 001:955 JLINK_WriteReg(PSP, 0x20001000)  returns 0x00 (0000ms, 0767ms total)
T38B0 001:955 JLINK_WriteReg(CFBP, 0x00000000)  returns 0x00 (0000ms, 0767ms total)
T38B0 001:955 JLINK_SetBPEx(Addr = 0x20000000, Type = 0xFFFFFFF2) -- CPU_ReadMem(2 bytes @ 0x20000000)  returns 0x00000007 (0001ms, 0768ms total)
T38B0 001:956 JLINK_Go() -- CPU_WriteMem(2 bytes @ 0x20000000) (0004ms, 0772ms total)
T38B0 001:960 JLINK_IsHalted() -- CPU_ReadMem(2 bytes @ 0x20000000)  returns TRUE (0006ms, 0778ms total)
T38B0 001:966 JLINK_ReadReg(R15 (PC))  returns 0x20000000 (0000ms, 0772ms total)
T38B0 001:966 JLINK_ClrBPEx(BPHandle = 0x00000007)  returns 0x00 (0000ms, 0772ms total)
T38B0 001:966 JLINK_ReadReg(R0)  returns 0x00000000 (0000ms, 0772ms total)
T38B0 001:967 JLINK_WriteMem(0x20000180, 0x0400 Bytes, ...) - Data: F8 49 00 20 65 02 00 08 6D 02 00 08 6F 02 00 08 ... -- CPU_WriteMem(1024 bytes @ 0x20000180)  returns 0x400 (0016ms, 0788ms total)
T38B0 001:983 JLINK_WriteReg(R0, 0x08000000)  returns 0x00 (0000ms, 0788ms total)
T38B0 001:983 JLINK_WriteReg(R1, 0x00000400)  returns 0x00 (0000ms, 0788ms total)
T38B0 001:983 JLINK_WriteReg(R2, 0x20000180)  returns 0x00 (0000ms, 0788ms total)
T38B0 001:983 JLINK_WriteReg(R3, 0x00000000)  returns 0x00 (0000ms, 0788ms total)
T38B0 001:983 JLINK_WriteReg(R4, 0x00000000)  returns 0x00 (0000ms, 0788ms total)
T38B0 001:983 JLINK_WriteReg(R5, 0x00000000)  returns 0x00 (0000ms, 0788ms total)
T38B0 001:983 JLINK_WriteReg(R6, 0x00000000)  returns 0x00 (0000ms, 0788ms total)
T38B0 001:983 JLINK_WriteReg(R7, 0x00000000)  returns 0x00 (0000ms, 0788ms total)
T38B0 001:983 JLINK_WriteReg(R8, 0x00000000)  returns 0x00 (0000ms, 0788ms total)
T38B0 001:983 JLINK_WriteReg(R9, 0x2000017C)  returns 0x00 (0000ms, 0788ms total)
T38B0 001:983 JLINK_WriteReg(R10, 0x00000000)  returns 0x00 (0000ms, 0788ms total)
T38B0 001:983 JLINK_WriteReg(R11, 0x00000000)  returns 0x00 (0000ms, 0788ms total)
T38B0 001:983 JLINK_WriteReg(R12, 0x00000000)  returns 0x00 (0000ms, 0788ms total)
T38B0 001:983 JLINK_WriteReg(R13 (SP), 0x20001000)  returns 0x00 (0000ms, 0788ms total)
T38B0 001:983 JLINK_WriteReg(R14, 0x20000001)  returns 0x00 (0000ms, 0788ms total)
T38B0 001:983 JLINK_WriteReg(R15 (PC), 0x20000108)  returns 0x00 (0000ms, 0788ms total)
T38B0 001:983 JLINK_WriteReg(XPSR, 0x01000000)  returns 0x00 (0000ms, 0788ms total)
T38B0 001:983 JLINK_WriteReg(MSP, 0x20001000)  returns 0x00 (0000ms, 0788ms total)
T38B0 001:983 JLINK_WriteReg(PSP, 0x20001000)  returns 0x00 (0000ms, 0788ms total)
T38B0 001:983 JLINK_WriteReg(CFBP, 0x00000000)  returns 0x00 (0000ms, 0788ms total)
T38B0 001:983 JLINK_SetBPEx(Addr = 0x20000000, Type = 0xFFFFFFF2)  returns 0x00000008 (0000ms, 0788ms total)
T38B0 001:983 JLINK_Go() (0003ms, 0791ms total)
T38B0 001:986 JLINK_IsHalted()  returns FALSE (0001ms, 0792ms total)
T38B0 002:093 JLINK_IsHalted() -- CPU_ReadMem(2 bytes @ 0x20000000)  returns TRUE (0007ms, 0798ms total)
T38B0 002:100 JLINK_ReadReg(R15 (PC))  returns 0x20000000 (0000ms, 0791ms total)
T38B0 002:100 JLINK_ClrBPEx(BPHandle = 0x00000008)  returns 0x00 (0000ms, 0791ms total)
T38B0 002:100 JLINK_ReadReg(R0)  returns 0x00000000 (0000ms, 0791ms total)
T38B0 002:100 JLINK_WriteMem(0x20000180, 0x0400 Bytes, ...) - Data: 20 2A 04 DB 20 3A 21 FA 02 F0 00 21 70 47 21 FA ... -- CPU_WriteMem(1024 bytes @ 0x20000180)  returns 0x400 (0016ms, 0807ms total)
T38B0 002:116 JLINK_WriteReg(R0, 0x08000400)  returns 0x00 (0000ms, 0807ms total)
T38B0 002:116 JLINK_WriteReg(R1, 0x00000400)  returns 0x00 (0000ms, 0807ms total)
T38B0 002:116 JLINK_WriteReg(R2, 0x20000180)  returns 0x00 (0000ms, 0807ms total)
T38B0 002:116 JLINK_WriteReg(R3, 0x00000000)  returns 0x00 (0000ms, 0807ms total)
T38B0 002:116 JLINK_WriteReg(R4, 0x00000000)  returns 0x00 (0000ms, 0807ms total)
T38B0 002:116 JLINK_WriteReg(R5, 0x00000000)  returns 0x00 (0000ms, 0807ms total)
T38B0 002:116 JLINK_WriteReg(R6, 0x00000000)  returns 0x00 (0000ms, 0807ms total)
T38B0 002:116 JLINK_WriteReg(R7, 0x00000000)  returns 0x00 (0000ms, 0807ms total)
T38B0 002:116 JLINK_WriteReg(R8, 0x00000000)  returns 0x00 (0000ms, 0807ms total)
T38B0 002:116 JLINK_WriteReg(R9, 0x2000017C)  returns 0x00 (0000ms, 0807ms total)
T38B0 002:116 JLINK_WriteReg(R10, 0x00000000)  returns 0x00 (0000ms, 0807ms total)
T38B0 002:116 JLINK_WriteReg(R11, 0x00000000)  returns 0x00 (0000ms, 0807ms total)
T38B0 002:116 JLINK_WriteReg(R12, 0x00000000)  returns 0x00 (0000ms, 0807ms total)
T38B0 002:116 JLINK_WriteReg(R13 (SP), 0x20001000)  returns 0x00 (0000ms, 0807ms total)
T38B0 002:116 JLINK_WriteReg(R14, 0x20000001)  returns 0x00 (0000ms, 0807ms total)
T38B0 002:116 JLINK_WriteReg(R15 (PC), 0x20000108)  returns 0x00 (0000ms, 0807ms total)
T38B0 002:116 JLINK_WriteReg(XPSR, 0x01000000)  returns 0x00 (0000ms, 0807ms total)
T38B0 002:116 JLINK_WriteReg(MSP, 0x20001000)  returns 0x00 (0000ms, 0807ms total)
T38B0 002:116 JLINK_WriteReg(PSP, 0x20001000)  returns 0x00 (0000ms, 0807ms total)
T38B0 002:116 JLINK_WriteReg(CFBP, 0x00000000)  returns 0x00 (0000ms, 0807ms total)
T38B0 002:116 JLINK_SetBPEx(Addr = 0x20000000, Type = 0xFFFFFFF2)  returns 0x00000009 (0000ms, 0807ms total)
T38B0 002:116 JLINK_Go() (0003ms, 0810ms total)
T38B0 002:119 JLINK_IsHalted()  returns FALSE (0001ms, 0811ms total)
T38B0 002:192 JLINK_IsHalted() -- CPU_ReadMem(2 bytes @ 0x20000000)  returns TRUE (0005ms, 0815ms total)
T38B0 002:197 JLINK_ReadReg(R15 (PC))  returns 0x20000000 (0000ms, 0810ms total)
T38B0 002:197 JLINK_ClrBPEx(BPHandle = 0x00000009)  returns 0x00 (0000ms, 0810ms total)
T38B0 002:197 JLINK_ReadReg(R0)  returns 0x00000000 (0000ms, 0810ms total)
T38B0 002:198 JLINK_WriteMem(0x20000180, 0x0400 Bytes, ...) - Data: A0 42 C9 D0 A8 42 C7 D0 B0 42 C5 D0 C1 E7 50 45 ... -- CPU_WriteMem(1024 bytes @ 0x20000180)  returns 0x400 (0015ms, 0825ms total)
T38B0 002:213 JLINK_WriteReg(R0, 0x08000800)  returns 0x00 (0000ms, 0825ms total)
T38B0 002:213 JLINK_WriteReg(R1, 0x00000400)  returns 0x00 (0000ms, 0825ms total)
T38B0 002:213 JLINK_WriteReg(R2, 0x20000180)  returns 0x00 (0000ms, 0825ms total)
T38B0 002:213 JLINK_WriteReg(R3, 0x00000000)  returns 0x00 (0000ms, 0825ms total)
T38B0 002:213 JLINK_WriteReg(R4, 0x00000000)  returns 0x00 (0000ms, 0825ms total)
T38B0 002:213 JLINK_WriteReg(R5, 0x00000000)  returns 0x00 (0000ms, 0825ms total)
T38B0 002:213 JLINK_WriteReg(R6, 0x00000000)  returns 0x00 (0000ms, 0825ms total)
T38B0 002:213 JLINK_WriteReg(R7, 0x00000000)  returns 0x00 (0000ms, 0825ms total)
T38B0 002:213 JLINK_WriteReg(R8, 0x00000000)  returns 0x00 (0000ms, 0825ms total)
T38B0 002:213 JLINK_WriteReg(R9, 0x2000017C)  returns 0x00 (0000ms, 0825ms total)
T38B0 002:213 JLINK_WriteReg(R10, 0x00000000)  returns 0x00 (0000ms, 0825ms total)
T38B0 002:213 JLINK_WriteReg(R11, 0x00000000)  returns 0x00 (0000ms, 0825ms total)
T38B0 002:213 JLINK_WriteReg(R12, 0x00000000)  returns 0x00 (0000ms, 0825ms total)
T38B0 002:213 JLINK_WriteReg(R13 (SP), 0x20001000)  returns 0x00 (0000ms, 0825ms total)
T38B0 002:213 JLINK_WriteReg(R14, 0x20000001)  returns 0x00 (0000ms, 0825ms total)
T38B0 002:213 JLINK_WriteReg(R15 (PC), 0x20000108)  returns 0x00 (0000ms, 0825ms total)
T38B0 002:213 JLINK_WriteReg(XPSR, 0x01000000)  returns 0x00 (0000ms, 0825ms total)
T38B0 002:213 JLINK_WriteReg(MSP, 0x20001000)  returns 0x00 (0000ms, 0825ms total)
T38B0 002:213 JLINK_WriteReg(PSP, 0x20001000)  returns 0x00 (0000ms, 0825ms total)
T38B0 002:213 JLINK_WriteReg(CFBP, 0x00000000)  returns 0x00 (0000ms, 0825ms total)
T38B0 002:213 JLINK_SetBPEx(Addr = 0x20000000, Type = 0xFFFFFFF2)  returns 0x0000000A (0000ms, 0825ms total)
T38B0 002:213 JLINK_Go() (0004ms, 0829ms total)
T38B0 002:217 JLINK_IsHalted()  returns FALSE (0001ms, 0830ms total)
T38B0 002:269 JLINK_IsHalted() -- CPU_ReadMem(2 bytes @ 0x20000000)  returns TRUE (0006ms, 0835ms total)
T38B0 002:275 JLINK_ReadReg(R15 (PC))  returns 0x20000000 (0000ms, 0829ms total)
T38B0 002:275 JLINK_ClrBPEx(BPHandle = 0x0000000A)  returns 0x00 (0000ms, 0829ms total)
T38B0 002:275 JLINK_ReadReg(R0)  returns 0x00000000 (0000ms, 0829ms total)
T38B0 002:276 JLINK_WriteMem(0x20000180, 0x0400 Bytes, ...) - Data: 88 42 03 D0 CE 49 98 31 88 42 01 D1 1A 46 00 E0 ... -- CPU_WriteMem(1024 bytes @ 0x20000180)  returns 0x400 (0015ms, 0844ms total)
T38B0 002:291 JLINK_WriteReg(R0, 0x08000C00)  returns 0x00 (0000ms, 0844ms total)
T38B0 002:291 JLINK_WriteReg(R1, 0x00000400)  returns 0x00 (0000ms, 0844ms total)
T38B0 002:291 JLINK_WriteReg(R2, 0x20000180)  returns 0x00 (0000ms, 0844ms total)
T38B0 002:291 JLINK_WriteReg(R3, 0x00000000)  returns 0x00 (0000ms, 0844ms total)
T38B0 002:291 JLINK_WriteReg(R4, 0x00000000)  returns 0x00 (0000ms, 0844ms total)
T38B0 002:291 JLINK_WriteReg(R5, 0x00000000)  returns 0x00 (0000ms, 0844ms total)
T38B0 002:291 JLINK_WriteReg(R6, 0x00000000)  returns 0x00 (0000ms, 0844ms total)
T38B0 002:291 JLINK_WriteReg(R7, 0x00000000)  returns 0x00 (0000ms, 0844ms total)
T38B0 002:291 JLINK_WriteReg(R8, 0x00000000)  returns 0x00 (0000ms, 0844ms total)
T38B0 002:291 JLINK_WriteReg(R9, 0x2000017C)  returns 0x00 (0000ms, 0844ms total)
T38B0 002:291 JLINK_WriteReg(R10, 0x00000000)  returns 0x00 (0000ms, 0844ms total)
T38B0 002:291 JLINK_WriteReg(R11, 0x00000000)  returns 0x00 (0000ms, 0844ms total)
T38B0 002:291 JLINK_WriteReg(R12, 0x00000000)  returns 0x00 (0000ms, 0844ms total)
T38B0 002:291 JLINK_WriteReg(R13 (SP), 0x20001000)  returns 0x00 (0000ms, 0844ms total)
T38B0 002:291 JLINK_WriteReg(R14, 0x20000001)  returns 0x00 (0000ms, 0844ms total)
T38B0 002:291 JLINK_WriteReg(R15 (PC), 0x20000108)  returns 0x00 (0000ms, 0844ms total)
T38B0 002:291 JLINK_WriteReg(XPSR, 0x01000000)  returns 0x00 (0000ms, 0844ms total)
T38B0 002:291 JLINK_WriteReg(MSP, 0x20001000)  returns 0x00 (0000ms, 0844ms total)
T38B0 002:291 JLINK_WriteReg(PSP, 0x20001000)  returns 0x00 (0000ms, 0844ms total)
T38B0 002:291 JLINK_WriteReg(CFBP, 0x00000000)  returns 0x00 (0000ms, 0844ms total)
T38B0 002:291 JLINK_SetBPEx(Addr = 0x20000000, Type = 0xFFFFFFF2)  returns 0x0000000B (0000ms, 0844ms total)
T38B0 002:291 JLINK_Go() (0003ms, 0847ms total)
T38B0 002:294 JLINK_IsHalted()  returns FALSE (0001ms, 0848ms total)
T38B0 002:297 JLINK_IsHalted()  returns FALSE (0000ms, 0847ms total)
T38B0 002:299 JLINK_IsHalted() -- CPU_ReadMem(2 bytes @ 0x20000000)  returns TRUE (0006ms, 0853ms total)
T38B0 002:305 JLINK_ReadReg(R15 (PC))  returns 0x20000000 (0000ms, 0847ms total)
T38B0 002:305 JLINK_ClrBPEx(BPHandle = 0x0000000B)  returns 0x00 (0000ms, 0847ms total)
T38B0 002:305 JLINK_ReadReg(R0)  returns 0x00000000 (0000ms, 0847ms total)
T38B0 002:306 JLINK_WriteMem(0x20000180, 0x0400 Bytes, ...) - Data: 1D D0 58 45 1B D0 DF F8 A0 83 40 45 17 D0 DF F8 ... -- CPU_WriteMem(1024 bytes @ 0x20000180)  returns 0x400 (0016ms, 0863ms total)
T38B0 002:322 JLINK_WriteReg(R0, 0x08001000)  returns 0x00 (0000ms, 0863ms total)
T38B0 002:322 JLINK_WriteReg(R1, 0x00000400)  returns 0x00 (0000ms, 0863ms total)
T38B0 002:322 JLINK_WriteReg(R2, 0x20000180)  returns 0x00 (0000ms, 0863ms total)
T38B0 002:322 JLINK_WriteReg(R3, 0x00000000)  returns 0x00 (0000ms, 0863ms total)
T38B0 002:322 JLINK_WriteReg(R4, 0x00000000)  returns 0x00 (0000ms, 0863ms total)
T38B0 002:322 JLINK_WriteReg(R5, 0x00000000)  returns 0x00 (0000ms, 0863ms total)
T38B0 002:322 JLINK_WriteReg(R6, 0x00000000)  returns 0x00 (0000ms, 0863ms total)
T38B0 002:322 JLINK_WriteReg(R7, 0x00000000)  returns 0x00 (0000ms, 0863ms total)
T38B0 002:322 JLINK_WriteReg(R8, 0x00000000)  returns 0x00 (0000ms, 0863ms total)
T38B0 002:322 JLINK_WriteReg(R9, 0x2000017C)  returns 0x00 (0000ms, 0863ms total)
T38B0 002:322 JLINK_WriteReg(R10, 0x00000000)  returns 0x00 (0000ms, 0863ms total)
T38B0 002:322 JLINK_WriteReg(R11, 0x00000000)  returns 0x00 (0000ms, 0863ms total)
T38B0 002:322 JLINK_WriteReg(R12, 0x00000000)  returns 0x00 (0000ms, 0863ms total)
T38B0 002:322 JLINK_WriteReg(R13 (SP), 0x20001000)  returns 0x00 (0000ms, 0863ms total)
T38B0 002:322 JLINK_WriteReg(R14, 0x20000001)  returns 0x00 (0000ms, 0863ms total)
T38B0 002:322 JLINK_WriteReg(R15 (PC), 0x20000108)  returns 0x00 (0000ms, 0863ms total)
T38B0 002:322 JLINK_WriteReg(XPSR, 0x01000000)  returns 0x00 (0000ms, 0863ms total)
T38B0 002:322 JLINK_WriteReg(MSP, 0x20001000)  returns 0x00 (0000ms, 0863ms total)
T38B0 002:322 JLINK_WriteReg(PSP, 0x20001000)  returns 0x00 (0000ms, 0863ms total)
T38B0 002:322 JLINK_WriteReg(CFBP, 0x00000000)  returns 0x00 (0000ms, 0863ms total)
T38B0 002:322 JLINK_SetBPEx(Addr = 0x20000000, Type = 0xFFFFFFF2)  returns 0x0000000C (0001ms, 0864ms total)
T38B0 002:323 JLINK_Go() (0003ms, 0867ms total)
T38B0 002:326 JLINK_IsHalted()  returns FALSE (0001ms, 0868ms total)
T38B0 002:429 JLINK_IsHalted() -- CPU_ReadMem(2 bytes @ 0x20000000)  returns TRUE (0006ms, 0873ms total)
T38B0 002:435 JLINK_ReadReg(R15 (PC))  returns 0x20000000 (0000ms, 0867ms total)
T38B0 002:435 JLINK_ClrBPEx(BPHandle = 0x0000000C)  returns 0x00 (0000ms, 0867ms total)
T38B0 002:435 JLINK_ReadReg(R0)  returns 0x00000000 (0000ms, 0867ms total)
T38B0 002:436 JLINK_WriteMem(0x20000180, 0x0400 Bytes, ...) - Data: A8 42 03 D0 B0 42 01 D0 48 45 03 D1 20 21 1E E0 ... -- CPU_WriteMem(1024 bytes @ 0x20000180)  returns 0x400 (0016ms, 0883ms total)
T38B0 002:452 JLINK_WriteReg(R0, 0x08001400)  returns 0x00 (0000ms, 0883ms total)
T38B0 002:452 JLINK_WriteReg(R1, 0x00000400)  returns 0x00 (0000ms, 0883ms total)
T38B0 002:452 JLINK_WriteReg(R2, 0x20000180)  returns 0x00 (0000ms, 0883ms total)
T38B0 002:452 JLINK_WriteReg(R3, 0x00000000)  returns 0x00 (0000ms, 0883ms total)
T38B0 002:452 JLINK_WriteReg(R4, 0x00000000)  returns 0x00 (0000ms, 0883ms total)
T38B0 002:452 JLINK_WriteReg(R5, 0x00000000)  returns 0x00 (0000ms, 0883ms total)
T38B0 002:452 JLINK_WriteReg(R6, 0x00000000)  returns 0x00 (0000ms, 0883ms total)
T38B0 002:452 JLINK_WriteReg(R7, 0x00000000)  returns 0x00 (0000ms, 0883ms total)
T38B0 002:452 JLINK_WriteReg(R8, 0x00000000)  returns 0x00 (0000ms, 0883ms total)
T38B0 002:452 JLINK_WriteReg(R9, 0x2000017C)  returns 0x00 (0000ms, 0883ms total)
T38B0 002:452 JLINK_WriteReg(R10, 0x00000000)  returns 0x00 (0000ms, 0883ms total)
T38B0 002:452 JLINK_WriteReg(R11, 0x00000000)  returns 0x00 (0000ms, 0883ms total)
T38B0 002:452 JLINK_WriteReg(R12, 0x00000000)  returns 0x00 (0000ms, 0883ms total)
T38B0 002:452 JLINK_WriteReg(R13 (SP), 0x20001000)  returns 0x00 (0000ms, 0883ms total)
T38B0 002:452 JLINK_WriteReg(R14, 0x20000001)  returns 0x00 (0000ms, 0883ms total)
T38B0 002:452 JLINK_WriteReg(R15 (PC), 0x20000108)  returns 0x00 (0000ms, 0883ms total)
T38B0 002:452 JLINK_WriteReg(XPSR, 0x01000000)  returns 0x00 (0000ms, 0883ms total)
T38B0 002:452 JLINK_WriteReg(MSP, 0x20001000)  returns 0x00 (0000ms, 0883ms total)
T38B0 002:452 JLINK_WriteReg(PSP, 0x20001000)  returns 0x00 (0000ms, 0883ms total)
T38B0 002:452 JLINK_WriteReg(CFBP, 0x00000000)  returns 0x00 (0000ms, 0883ms total)
T38B0 002:452 JLINK_SetBPEx(Addr = 0x20000000, Type = 0xFFFFFFF2)  returns 0x0000000D (0000ms, 0883ms total)
T38B0 002:452 JLINK_Go() (0002ms, 0885ms total)
T38B0 002:454 JLINK_IsHalted()  returns FALSE (0001ms, 0886ms total)
T38B0 002:551 JLINK_IsHalted() -- CPU_ReadMem(2 bytes @ 0x20000000)  returns TRUE (0006ms, 0891ms total)
T38B0 002:557 JLINK_ReadReg(R15 (PC))  returns 0x20000000 (0000ms, 0885ms total)
T38B0 002:557 JLINK_ClrBPEx(BPHandle = 0x0000000D)  returns 0x00 (0000ms, 0885ms total)
T38B0 002:557 JLINK_ReadReg(R0)  returns 0x00000000 (0000ms, 0885ms total)
T38B0 002:557 JLINK_WriteMem(0x20000180, 0x0400 Bytes, ...) - Data: 37 43 07 60 4E 68 01 2E 05 D0 02 2E 03 D0 11 2E ... -- CPU_WriteMem(1024 bytes @ 0x20000180)  returns 0x400 (0016ms, 0901ms total)
T38B0 002:573 JLINK_WriteReg(R0, 0x08001800)  returns 0x00 (0000ms, 0901ms total)
T38B0 002:573 JLINK_WriteReg(R1, 0x00000400)  returns 0x00 (0000ms, 0901ms total)
T38B0 002:573 JLINK_WriteReg(R2, 0x20000180)  returns 0x00 (0000ms, 0901ms total)
T38B0 002:573 JLINK_WriteReg(R3, 0x00000000)  returns 0x00 (0000ms, 0901ms total)
T38B0 002:573 JLINK_WriteReg(R4, 0x00000000)  returns 0x00 (0000ms, 0901ms total)
T38B0 002:573 JLINK_WriteReg(R5, 0x00000000)  returns 0x00 (0000ms, 0901ms total)
T38B0 002:573 JLINK_WriteReg(R6, 0x00000000)  returns 0x00 (0000ms, 0901ms total)
T38B0 002:573 JLINK_WriteReg(R7, 0x00000000)  returns 0x00 (0000ms, 0901ms total)
T38B0 002:573 JLINK_WriteReg(R8, 0x00000000)  returns 0x00 (0000ms, 0901ms total)
T38B0 002:573 JLINK_WriteReg(R9, 0x2000017C)  returns 0x00 (0000ms, 0901ms total)
T38B0 002:573 JLINK_WriteReg(R10, 0x00000000)  returns 0x00 (0000ms, 0901ms total)
T38B0 002:573 JLINK_WriteReg(R11, 0x00000000)  returns 0x00 (0000ms, 0901ms total)
T38B0 002:573 JLINK_WriteReg(R12, 0x00000000)  returns 0x00 (0000ms, 0901ms total)
T38B0 002:573 JLINK_WriteReg(R13 (SP), 0x20001000)  returns 0x00 (0000ms, 0901ms total)
T38B0 002:573 JLINK_WriteReg(R14, 0x20000001)  returns 0x00 (0000ms, 0901ms total)
T38B0 002:573 JLINK_WriteReg(R15 (PC), 0x20000108)  returns 0x00 (0000ms, 0901ms total)
T38B0 002:573 JLINK_WriteReg(XPSR, 0x01000000)  returns 0x00 (0000ms, 0901ms total)
T38B0 002:573 JLINK_WriteReg(MSP, 0x20001000)  returns 0x00 (0000ms, 0901ms total)
T38B0 002:573 JLINK_WriteReg(PSP, 0x20001000)  returns 0x00 (0000ms, 0901ms total)
T38B0 002:573 JLINK_WriteReg(CFBP, 0x00000000)  returns 0x00 (0000ms, 0901ms total)
T38B0 002:573 JLINK_SetBPEx(Addr = 0x20000000, Type = 0xFFFFFFF2)  returns 0x0000000E (0000ms, 0901ms total)
T38B0 002:573 JLINK_Go() (0004ms, 0905ms total)
T38B0 002:577 JLINK_IsHalted()  returns FALSE (0001ms, 0906ms total)
T38B0 002:613 JLINK_IsHalted() -- CPU_ReadMem(2 bytes @ 0x20000000)  returns TRUE (0006ms, 0911ms total)
T38B0 002:620 JLINK_ReadReg(R15 (PC))  returns 0x20000000 (0000ms, 0905ms total)
T38B0 002:620 JLINK_ClrBPEx(BPHandle = 0x0000000E)  returns 0x00 (0000ms, 0905ms total)
T38B0 002:620 JLINK_ReadReg(R0)  returns 0x00000000 (0000ms, 0905ms total)
T38B0 002:620 JLINK_WriteMem(0x20000180, 0x0400 Bytes, ...) - Data: AB 46 45 46 28 68 C0 F3 81 00 02 28 F2 D1 8A F8 ... -- CPU_WriteMem(1024 bytes @ 0x20000180)  returns 0x400 (0016ms, 0921ms total)
T38B0 002:636 JLINK_WriteReg(R0, 0x08001C00)  returns 0x00 (0000ms, 0921ms total)
T38B0 002:636 JLINK_WriteReg(R1, 0x00000400)  returns 0x00 (0000ms, 0921ms total)
T38B0 002:636 JLINK_WriteReg(R2, 0x20000180)  returns 0x00 (0000ms, 0921ms total)
T38B0 002:636 JLINK_WriteReg(R3, 0x00000000)  returns 0x00 (0000ms, 0921ms total)
T38B0 002:636 JLINK_WriteReg(R4, 0x00000000)  returns 0x00 (0000ms, 0921ms total)
T38B0 002:636 JLINK_WriteReg(R5, 0x00000000)  returns 0x00 (0000ms, 0921ms total)
T38B0 002:636 JLINK_WriteReg(R6, 0x00000000)  returns 0x00 (0000ms, 0921ms total)
T38B0 002:636 JLINK_WriteReg(R7, 0x00000000)  returns 0x00 (0000ms, 0921ms total)
T38B0 002:636 JLINK_WriteReg(R8, 0x00000000)  returns 0x00 (0000ms, 0921ms total)
T38B0 002:636 JLINK_WriteReg(R9, 0x2000017C)  returns 0x00 (0000ms, 0921ms total)
T38B0 002:636 JLINK_WriteReg(R10, 0x00000000)  returns 0x00 (0000ms, 0921ms total)
T38B0 002:636 JLINK_WriteReg(R11, 0x00000000)  returns 0x00 (0000ms, 0921ms total)
T38B0 002:636 JLINK_WriteReg(R12, 0x00000000)  returns 0x00 (0000ms, 0921ms total)
T38B0 002:636 JLINK_WriteReg(R13 (SP), 0x20001000)  returns 0x00 (0000ms, 0921ms total)
T38B0 002:636 JLINK_WriteReg(R14, 0x20000001)  returns 0x00 (0000ms, 0921ms total)
T38B0 002:636 JLINK_WriteReg(R15 (PC), 0x20000108)  returns 0x00 (0000ms, 0921ms total)
T38B0 002:636 JLINK_WriteReg(XPSR, 0x01000000)  returns 0x00 (0000ms, 0921ms total)
T38B0 002:636 JLINK_WriteReg(MSP, 0x20001000)  returns 0x00 (0000ms, 0921ms total)
T38B0 002:636 JLINK_WriteReg(PSP, 0x20001000)  returns 0x00 (0000ms, 0921ms total)
T38B0 002:636 JLINK_WriteReg(CFBP, 0x00000000)  returns 0x00 (0000ms, 0921ms total)
T38B0 002:636 JLINK_SetBPEx(Addr = 0x20000000, Type = 0xFFFFFFF2)  returns 0x0000000F (0000ms, 0921ms total)
T38B0 002:636 JLINK_Go() (0004ms, 0925ms total)
T38B0 002:640 JLINK_IsHalted()  returns FALSE (0001ms, 0926ms total)
T38B0 002:692 JLINK_IsHalted() -- CPU_ReadMem(2 bytes @ 0x20000000)  returns TRUE (0006ms, 0931ms total)
T38B0 002:698 JLINK_ReadReg(R15 (PC))  returns 0x20000000 (0000ms, 0925ms total)
T38B0 002:698 JLINK_ClrBPEx(BPHandle = 0x0000000F)  returns 0x00 (0000ms, 0925ms total)
T38B0 002:698 JLINK_ReadReg(R0)  returns 0x00000000 (0000ms, 0925ms total)
T38B0 002:698 JLINK_WriteMem(0x20000180, 0x0400 Bytes, ...) - Data: 3F D8 28 68 80 01 F7 D4 D4 E9 07 01 08 43 47 F6 ... -- CPU_WriteMem(1024 bytes @ 0x20000180)  returns 0x400 (0017ms, 0942ms total)
T38B0 002:715 JLINK_WriteReg(R0, 0x08002000)  returns 0x00 (0000ms, 0942ms total)
T38B0 002:715 JLINK_WriteReg(R1, 0x00000400)  returns 0x00 (0000ms, 0942ms total)
T38B0 002:715 JLINK_WriteReg(R2, 0x20000180)  returns 0x00 (0000ms, 0942ms total)
T38B0 002:715 JLINK_WriteReg(R3, 0x00000000)  returns 0x00 (0000ms, 0942ms total)
